  #before cut the power off
  
  can0  601   [8]  40 64 60 00 00 00 00 00
  can0  602   [8]  40 0C 60 00 00 00 00 00
  can0  582   [8]  43 0C 60 00 72 15 00 00
  can0  603   [8]  40 0C 60 00 00 00 00 00
  can0  583   [8]  43 0C 60 00 AC F7 FF FF
  can0  604   [8]  40 0C 60 00 00 00 00 00
  can0  584   [8]  43 0C 60 00 44 00 00 00
  can0  601   [8]  40 6C 60 00 00 00 00 00
  can0  702   [1]  05
  can0  703   [1]  05
  can0  704   [1]  05
  can0  601   [8]  40 41 60 00 00 00 00 00
  can0  702   [1]  05
  can0  703   [1]  05
  can0  704   [1]  05
  can0  702   [1]  05
  can0  703   [1]  05
  can0  704   [1]  05
  can0  602   [8]  40 35 60 00 00 00 00 00
  can0  582   [8]  43 35 60 00 50 8F 00 00
  can0  603   [8]  40 35 60 00 00 00 00 00
  can0  583   [8]  43 35 60 00 57 83 00 00
  can0  604   [8]  40 35 60 00 00 00 00 00
  can0  584   [8]  43 35 60 00 C3 82 00 00
  can0  702   [1]  05
  can0  703   [1]  05
  can0  704   [1]  05
  can0  702   [1]  05
  can0  703   [1]  05

# the power off here

# re turn the power on

  can0  704   [1]  05
  can0  703   [1]  05
  can0  702   [1]  05
  can0  701   [1]  05
  can0  704   [1]  05
  can0  703   [1]  05
  can0  602   [8]  2F 0E 60 00 01 00 00 00
  can0  582   [8]  60 0E 60 00 00 00 00 00
  can0  602   [8]  40 0E 60 00 00 00 00 00
  can0  582   [8]  4F 0E 60 00 01 00 00 00
  can0  603   [8]  2F 0E 60 00 01 00 00 00
  can0  583   [8]  60 0E 60 00 00 00 00 00
  can0  603   [8]  40 0E 60 00 00 00 00 00
  can0  583   [8]  4F 0E 60 00 01 00 00 00
  can0  604   [8]  2F 0E 60 00 01 00 00 00
  can0  584   [8]  60 0E 60 00 00 00 00 00
  can0  604   [8]  40 0E 60 00 00 00 00 00
  can0  584   [8]  4F 0E 60 00 01 00 00 00
  can0  602   [8]  2F 29 60 00 01 00 00 00
  can0  582   [8]  60 29 60 00 00 00 00 00
  can0  602   [8]  40 29 60 00 00 00 00 00
  can0  582   [8]  4F 29 60 00 01 00 00 00
  can0  603   [8]  2F 29 60 00 01 00 00 00
  can0  583   [8]  60 29 60 00 00 00 00 00
  can0  603   [8]  40 29 60 00 00 00 00 00
  can0  583   [8]  4F 29 60 00 01 00 00 00
  can0  604   [8]  2F 29 60 00 01 00 00 00
  can0  584   [8]  60 29 60 00 00 00 00 00
  can0  604   [8]  40 29 60 00 00 00 00 00
  can0  584   [8]  4F 29 60 00 01 00 00 00
  can0  602   [8]  2B 0B 60 00 B8 0B 00 00
  can0  582   [8]  60 0B 60 00 00 00 00 00
  can0  602   [8]  40 0B 60 00 00 00 00 00
  can0  582   [8]  4B 0B 60 00 C0 0B 00 00
  can0  602   [8]  2B 0B 60 00 B8 0B 00 00
  can0  582   [8]  60 0B 60 00 00 00 00 00
  can0  602   [8]  40 0B 60 00 00 00 00 00
  can0  582   [8]  4B 0B 60 00 C0 0B 00 00
  can0  602   [8]  2B 0B 60 00 B8 0B 00 00
  can0  582   [8]  60 0B 60 00 00 00 00 00
  can0  602   [8]  40 0B 60 00 00 00 00 00
  can0  582   [8]  4B 0B 60 00 C0 0B 00 00
  can0  602   [8]  2B 0B 60 00 B8 0B 00 00
  can0  582   [8]  60 0B 60 00 00 00 00 00
  can0  602   [8]  40 0B 60 00 00 00 00 00
  can0  582   [8]  4B 0B 60 00 C0 0B 00 00
  can0  602   [8]  2B 0B 60 00 B8 0B 00 00
  can0  582   [8]  60 0B 60 00 00 00 00 00
  can0  602   [8]  40 0B 60 00 00 00 00 00
  can0  582   [8]  4B 0B 60 00 C0 0B 00 00
  can0  602   [8]  2B 0B 60 00 B8 0B 00 00
  can0  582   [8]  60 0B 60 00 00 00 00 00
  can0  602   [8]  40 0B 60 00 00 00 00 00
  can0  582   [8]  4B 0B 60 00 C0 0B 00 00
  can0  602   [8]  2B 0B 60 00 B8 0B 00 00
  can0  582   [8]  60 0B 60 00 00 00 00 00
  can0  602   [8]  40 0B 60 00 00 00 00 00
  can0  582   [8]  4B 0B 60 00 C0 0B 00 00
  can0  602   [8]  2B 0B 60 00 B8 0B 00 00
  can0  582   [8]  60 0B 60 00 00 00 00 00
  can0  602   [8]  40 0B 60 00 00 00 00 00
  can0  582   [8]  4B 0B 60 00 C0 0B 00 00
  can0  602   [8]  2B 0B 60 00 B8 0B 00 00
  can0  582   [8]  60 0B 60 00 00 00 00 00
  can0  602   [8]  40 0B 60 00 00 00 00 00
  can0  582   [8]  4B 0B 60 00 C0 0B 00 00
  can0  602   [8]  2B 0B 60 00 B8 0B 00 00
  can0  582   [8]  60 0B 60 00 00 00 00 00
  can0  602   [8]  40 0B 60 00 00 00 00 00
  can0  582   [8]  4B 0B 60 00 C0 0B 00 00
  can0  602   [8]  2B 0B 60 00 B8 0B 00 00
  can0  582   [8]  60 0B 60 00 00 00 00 00
  can0  602   [8]  40 0B 60 00 00 00 00 00
  can0  582   [8]  4B 0B 60 00 C0 0B 00 00
  can0  602   [8]  2B 0B 60 00 B8 0B 00 00
  can0  582   [8]  60 0B 60 00 00 00 00 00
  can0  602   [8]  40 0B 60 00 00 00 00 00
  can0  582   [8]  4B 0B 60 00 C0 0B 00 00
  can0  602   [8]  2B 0B 60 00 B8 0B 00 00
  can0  582   [8]  60 0B 60 00 00 00 00 00
  can0  602   [8]  40 0B 60 00 00 00 00 00
  can0  582   [8]  4B 0B 60 00 C0 0B 00 00
  can0  602   [8]  2B 0B 60 00 B8 0B 00 00
  can0  582   [8]  60 0B 60 00 00 00 00 00
  can0  602   [8]  40 0B 60 00 00 00 00 00
  can0  582   [8]  4B 0B 60 00 C0 0B 00 00
  can0  602   [8]  2B 0B 60 00 B8 0B 00 00
  can0  582   [8]  60 0B 60 00 00 00 00 00
  can0  602   [8]  40 0B 60 00 00 00 00 00
  can0  582   [8]  4B 0B 60 00 C0 0B 00 00
  can0  602   [8]  2B 0B 60 00 B8 0B 00 00
  can0  582   [8]  60 0B 60 00 00 00 00 00
  can0  602   [8]  40 0B 60 00 00 00 00 00
  can0  582   [8]  4B 0B 60 00 C0 0B 00 00
  can0  602   [8]  2B 0B 60 00 B8 0B 00 00
  can0  582   [8]  60 0B 60 00 00 00 00 00
  can0  602   [8]  40 0B 60 00 00 00 00 00
  can0  582   [8]  4B 0B 60 00 C0 0B 00 00
  can0  602   [8]  2B 0B 60 00 B8 0B 00 00
  can0  582   [8]  60 0B 60 00 00 00 00 00
  can0  602   [8]  40 0B 60 00 00 00 00 00
  can0  582   [8]  4B 0B 60 00 C0 0B 00 00
  can0  602   [8]  2B 0B 60 00 B8 0B 00 00
  can0  582   [8]  60 0B 60 00 00 00 00 00
  can0  602   [8]  40 0B 60 00 00 00 00 00
  can0  582   [8]  4B 0B 60 00 C0 0B 00 00
  can0  602   [8]  2B 0B 60 00 B8 0B 00 00
  can0  582   [8]  60 0B 60 00 00 00 00 00
  can0  602   [8]  40 0B 60 00 00 00 00 00
  can0  582   [8]  4B 0B 60 00 C0 0B 00 00
  can0  602   [8]  2B 0B 60 00 B8 0B 00 00
  can0  582   [8]  60 0B 60 00 00 00 00 00
  can0  602   [8]  40 0B 60 00 00 00 00 00
  can0  582   [8]  4B 0B 60 00 C0 0B 00 00
  can0  603   [8]  2B 0B 60 00 B8 0B 00 00
  can0  583   [8]  60 0B 60 00 00 00 00 00
  can0  603   [8]  40 0B 60 00 00 00 00 00
  can0  583   [8]  4B 0B 60 00 C0 0B 00 00
  can0  603   [8]  2B 0B 60 00 B8 0B 00 00
  can0  583   [8]  60 0B 60 00 00 00 00 00
  can0  603   [8]  40 0B 60 00 00 00 00 00
  can0  583   [8]  4B 0B 60 00 C0 0B 00 00
  can0  603   [8]  2B 0B 60 00 B8 0B 00 00
  can0  583   [8]  60 0B 60 00 00 00 00 00
  can0  603   [8]  40 0B 60 00 00 00 00 00
  can0  583   [8]  4B 0B 60 00 C0 0B 00 00
  can0  603   [8]  2B 0B 60 00 B8 0B 00 00
  can0  583   [8]  60 0B 60 00 00 00 00 00
  can0  603   [8]  40 0B 60 00 00 00 00 00
  can0  583   [8]  4B 0B 60 00 C0 0B 00 00
  can0  603   [8]  2B 0B 60 00 B8 0B 00 00
  can0  583   [8]  60 0B 60 00 00 00 00 00
  can0  603   [8]  40 0B 60 00 00 00 00 00
  can0  583   [8]  4B 0B 60 00 C0 0B 00 00
  can0  603   [8]  2B 0B 60 00 B8 0B 00 00
  can0  583   [8]  60 0B 60 00 00 00 00 00
  can0  603   [8]  40 0B 60 00 00 00 00 00
  can0  583   [8]  4B 0B 60 00 C0 0B 00 00
  can0  603   [8]  2B 0B 60 00 B8 0B 00 00
  can0  583   [8]  60 0B 60 00 00 00 00 00
  can0  603   [8]  40 0B 60 00 00 00 00 00
  can0  583   [8]  4B 0B 60 00 C0 0B 00 00
  can0  603   [8]  2B 0B 60 00 B8 0B 00 00
  can0  583   [8]  60 0B 60 00 00 00 00 00
  can0  603   [8]  40 0B 60 00 00 00 00 00
  can0  583   [8]  4B 0B 60 00 C0 0B 00 00
  can0  603   [8]  2B 0B 60 00 B8 0B 00 00
  can0  583   [8]  60 0B 60 00 00 00 00 00
  can0  603   [8]  40 0B 60 00 00 00 00 00
  can0  583   [8]  4B 0B 60 00 C0 0B 00 00
  can0  603   [8]  2B 0B 60 00 B8 0B 00 00
  can0  583   [8]  60 0B 60 00 00 00 00 00
  can0  603   [8]  40 0B 60 00 00 00 00 00
  can0  583   [8]  4B 0B 60 00 C0 0B 00 00
  can0  603   [8]  2B 0B 60 00 B8 0B 00 00
  can0  583   [8]  60 0B 60 00 00 00 00 00
  can0  603   [8]  40 0B 60 00 00 00 00 00
  can0  583   [8]  4B 0B 60 00 C0 0B 00 00
  can0  603   [8]  2B 0B 60 00 B8 0B 00 00
  can0  583   [8]  60 0B 60 00 00 00 00 00
  can0  603   [8]  40 0B 60 00 00 00 00 00
  can0  583   [8]  4B 0B 60 00 C0 0B 00 00
  can0  603   [8]  2B 0B 60 00 B8 0B 00 00
  can0  583   [8]  60 0B 60 00 00 00 00 00
  can0  603   [8]  40 0B 60 00 00 00 00 00
  can0  583   [8]  4B 0B 60 00 C0 0B 00 00
  can0  603   [8]  2B 0B 60 00 B8 0B 00 00
  can0  583   [8]  60 0B 60 00 00 00 00 00
  can0  603   [8]  40 0B 60 00 00 00 00 00
  can0  583   [8]  4B 0B 60 00 C0 0B 00 00
  can0  603   [8]  2B 0B 60 00 B8 0B 00 00
  can0  583   [8]  60 0B 60 00 00 00 00 00
  can0  603   [8]  40 0B 60 00 00 00 00 00
  can0  583   [8]  4B 0B 60 00 C0 0B 00 00
  can0  603   [8]  2B 0B 60 00 B8 0B 00 00
  can0  583   [8]  60 0B 60 00 00 00 00 00
  can0  603   [8]  40 0B 60 00 00 00 00 00
  can0  583   [8]  4B 0B 60 00 C0 0B 00 00
  can0  603   [8]  2B 0B 60 00 B8 0B 00 00
  can0  583   [8]  60 0B 60 00 00 00 00 00
  can0  603   [8]  40 0B 60 00 00 00 00 00
  can0  583   [8]  4B 0B 60 00 C0 0B 00 00
  can0  603   [8]  2B 0B 60 00 B8 0B 00 00
  can0  583   [8]  60 0B 60 00 00 00 00 00
  can0  603   [8]  40 0B 60 00 00 00 00 00
  can0  583   [8]  4B 0B 60 00 C0 0B 00 00
  can0  603   [8]  2B 0B 60 00 B8 0B 00 00
  can0  583   [8]  60 0B 60 00 00 00 00 00
  can0  603   [8]  40 0B 60 00 00 00 00 00
  can0  583   [8]  4B 0B 60 00 C0 0B 00 00
  can0  603   [8]  2B 0B 60 00 B8 0B 00 00
  can0  583   [8]  60 0B 60 00 00 00 00 00
  can0  603   [8]  40 0B 60 00 00 00 00 00
  can0  583   [8]  4B 0B 60 00 C0 0B 00 00
  can0  603   [8]  2B 0B 60 00 B8 0B 00 00
  can0  583   [8]  60 0B 60 00 00 00 00 00
  can0  603   [8]  40 0B 60 00 00 00 00 00
  can0  583   [8]  4B 0B 60 00 C0 0B 00 00
  can0  604   [8]  2B 0B 60 00 B8 0B 00 00
  can0  584   [8]  60 0B 60 00 00 00 00 00
  can0  604   [8]  40 0B 60 00 00 00 00 00
  can0  584   [8]  4B 0B 60 00 C0 0B 00 00
  can0  604   [8]  2B 0B 60 00 B8 0B 00 00
  can0  584   [8]  60 0B 60 00 00 00 00 00
  can0  604   [8]  40 0B 60 00 00 00 00 00
  can0  584   [8]  4B 0B 60 00 C0 0B 00 00
  can0  604   [8]  2B 0B 60 00 B8 0B 00 00
  can0  584   [8]  60 0B 60 00 00 00 00 00
  can0  604   [8]  40 0B 60 00 00 00 00 00
  can0  584   [8]  4B 0B 60 00 C0 0B 00 00
  can0  604   [8]  2B 0B 60 00 B8 0B 00 00
  can0  584   [8]  60 0B 60 00 00 00 00 00
  can0  604   [8]  40 0B 60 00 00 00 00 00
  can0  584   [8]  4B 0B 60 00 C0 0B 00 00
  can0  604   [8]  2B 0B 60 00 B8 0B 00 00
  can0  584   [8]  60 0B 60 00 00 00 00 00
  can0  604   [8]  40 0B 60 00 00 00 00 00
  can0  584   [8]  4B 0B 60 00 C0 0B 00 00
  can0  604   [8]  2B 0B 60 00 B8 0B 00 00
  can0  584   [8]  60 0B 60 00 00 00 00 00
  can0  604   [8]  40 0B 60 00 00 00 00 00
  can0  584   [8]  4B 0B 60 00 C0 0B 00 00
  can0  604   [8]  2B 0B 60 00 B8 0B 00 00
  can0  584   [8]  60 0B 60 00 00 00 00 00
  can0  604   [8]  40 0B 60 00 00 00 00 00
  can0  584   [8]  4B 0B 60 00 C0 0B 00 00
  can0  604   [8]  2B 0B 60 00 B8 0B 00 00
  can0  584   [8]  60 0B 60 00 00 00 00 00
  can0  604   [8]  40 0B 60 00 00 00 00 00
  can0  584   [8]  4B 0B 60 00 C0 0B 00 00
  can0  604   [8]  2B 0B 60 00 B8 0B 00 00
  can0  584   [8]  60 0B 60 00 00 00 00 00
  can0  604   [8]  40 0B 60 00 00 00 00 00
  can0  584   [8]  4B 0B 60 00 C0 0B 00 00
  can0  604   [8]  2B 0B 60 00 B8 0B 00 00
  can0  584   [8]  60 0B 60 00 00 00 00 00
  can0  604   [8]  40 0B 60 00 00 00 00 00
  can0  584   [8]  4B 0B 60 00 C0 0B 00 00
  can0  604   [8]  2B 0B 60 00 B8 0B 00 00
  can0  584   [8]  60 0B 60 00 00 00 00 00
  can0  604   [8]  40 0B 60 00 00 00 00 00
  can0  584   [8]  4B 0B 60 00 C0 0B 00 00
  can0  604   [8]  2B 0B 60 00 B8 0B 00 00
  can0  584   [8]  60 0B 60 00 00 00 00 00
  can0  604   [8]  40 0B 60 00 00 00 00 00
  can0  584   [8]  4B 0B 60 00 C0 0B 00 00
  can0  604   [8]  2B 0B 60 00 B8 0B 00 00
  can0  584   [8]  60 0B 60 00 00 00 00 00
  can0  604   [8]  40 0B 60 00 00 00 00 00
  can0  584   [8]  4B 0B 60 00 C0 0B 00 00
  can0  604   [8]  2B 0B 60 00 B8 0B 00 00
  can0  584   [8]  60 0B 60 00 00 00 00 00
  can0  604   [8]  40 0B 60 00 00 00 00 00
  can0  584   [8]  4B 0B 60 00 C0 0B 00 00
  can0  604   [8]  2B 0B 60 00 B8 0B 00 00
  can0  584   [8]  60 0B 60 00 00 00 00 00
  can0  604   [8]  40 0B 60 00 00 00 00 00
  can0  584   [8]  4B 0B 60 00 C0 0B 00 00
  can0  604   [8]  2B 0B 60 00 B8 0B 00 00
  can0  584   [8]  60 0B 60 00 00 00 00 00
  can0  604   [8]  40 0B 60 00 00 00 00 00
  can0  584   [8]  4B 0B 60 00 C0 0B 00 00
  can0  604   [8]  2B 0B 60 00 B8 0B 00 00
  can0  584   [8]  60 0B 60 00 00 00 00 00
  can0  604   [8]  40 0B 60 00 00 00 00 00
  can0  584   [8]  4B 0B 60 00 C0 0B 00 00
  can0  604   [8]  2B 0B 60 00 B8 0B 00 00
  can0  584   [8]  60 0B 60 00 00 00 00 00
  can0  604   [8]  40 0B 60 00 00 00 00 00
  can0  584   [8]  4B 0B 60 00 C0 0B 00 00
  can0  604   [8]  2B 0B 60 00 B8 0B 00 00
  can0  584   [8]  60 0B 60 00 00 00 00 00
  can0  604   [8]  40 0B 60 00 00 00 00 00
  can0  584   [8]  4B 0B 60 00 C0 0B 00 00
  can0  604   [8]  2B 0B 60 00 B8 0B 00 00
  can0  584   [8]  60 0B 60 00 00 00 00 00
  can0  604   [8]  40 0B 60 00 00 00 00 00
  can0  584   [8]  4B 0B 60 00 C0 0B 00 00
  can0  604   [8]  2B 0B 60 00 B8 0B 00 00
  can0  584   [8]  60 0B 60 00 00 00 00 00
  can0  604   [8]  40 0B 60 00 00 00 00 00
  can0  584   [8]  4B 0B 60 00 C0 0B 00 00
  can0  602   [8]  2B 0A 60 00 20 00 00 00
  can0  582   [8]  60 0A 60 00 00 00 00 00
  can0  602   [8]  40 0A 60 00 00 00 00 00
  can0  582   [8]  4B 0A 60 00 20 00 00 00
  can0  603   [8]  2B 0A 60 00 20 00 00 00
  can0  583   [8]  60 0A 60 00 00 00 00 00
  can0  603   [8]  40 0A 60 00 00 00 00 00
  can0  583   [8]  4B 0A 60 00 20 00 00 00
  can0  604   [8]  2B 0A 60 00 20 00 00 00
  can0  584   [8]  60 0A 60 00 00 00 00 00
  can0  604   [8]  40 0A 60 00 00 00 00 00
  can0  584   [8]  4B 0A 60 00 20 00 00 00
  can0  602   [8]  2F 08 60 00 01 00 00 00
  can0  582   [8]  60 08 60 00 00 00 00 00
  can0  602   [8]  40 08 60 00 00 00 00 00
  can0  582   [8]  4F 08 60 00 01 00 00 00
  can0  603   [8]  2F 08 60 00 01 00 00 00
  can0  583   [8]  60 08 60 00 00 00 00 00
  can0  603   [8]  40 08 60 00 00 00 00 00
  can0  583   [8]  4F 08 60 00 01 00 00 00
  can0  604   [8]  2F 08 60 00 01 00 00 00
  can0  584   [8]  60 08 60 00 00 00 00 00
  can0  604   [8]  40 08 60 00 00 00 00 00
  can0  584   [8]  4F 08 60 00 01 00 00 00
  can0  602   [8]  2F 09 60 00 01 00 00 00
  can0  582   [8]  60 09 60 00 00 00 00 00
  can0  602   [8]  40 09 60 00 00 00 00 00
  can0  582   [8]  4F 09 60 00 01 00 00 00
  can0  603   [8]  2F 09 60 00 01 00 00 00
  can0  583   [8]  60 09 60 00 00 00 00 00
  can0  603   [8]  40 09 60 00 00 00 00 00
  can0  583   [8]  4F 09 60 00 01 00 00 00
  can0  604   [8]  2F 09 60 00 01 00 00 00
  can0  584   [8]  60 09 60 00 00 00 00 00
  can0  604   [8]  40 09 60 00 00 00 00 00
  can0  584   [8]  4F 09 60 00 01 00 00 00
  can0  602   [8]  2F 1B 60 00 01 00 00 00
  can0  582   [8]  60 1B 60 00 00 00 00 00
  can0  602   [8]  2B 28 60 00 40 00 00 00
  can0  582   [8]  60 28 60 00 00 00 00 00
  can0  602   [8]  40 28 60 00 00 00 00 00
  can0  582   [8]  4B 28 60 00 40 00 00 00
  can0  603   [8]  2F 1B 60 00 01 00 00 00
  can0  583   [8]  60 1B 60 00 00 00 00 00
  can0  603   [8]  2B 28 60 00 40 00 00 00
  can0  583   [8]  60 28 60 00 00 00 00 00
  can0  603   [8]  40 28 60 00 00 00 00 00
  can0  583   [8]  4B 28 60 00 40 00 00 00
  can0  604   [8]  2F 1B 60 00 01 00 00 00
  can0  584   [8]  60 1B 60 00 00 00 00 00
  can0  604   [8]  2B 28 60 00 40 00 00 00
  can0  584   [8]  60 28 60 00 00 00 00 00
  can0  604   [8]  40 28 60 00 00 00 00 00
  can0  584   [8]  4B 28 60 00 40 00 00 00
  can0  602   [8]  2F 07 20 00 02 00 00 00
  can0  582   [8]  60 07 20 00 00 00 00 00
  can0  603   [8]  2F 07 20 00 02 00 00 00
  can0  583   [8]  60 07 20 00 00 00 00 00
  can0  604   [8]  2F 07 20 00 02 00 00 00
  can0  584   [8]  60 07 20 00 00 00 00 00
  can0  702   [1]  05
